HEADER
"PSFversion" "1.00"
"simulator" "KSI"
"runtype" "Transient Analysis"
TYPE
"node" FLOAT DOUBLE PROP(
"key" "node" 
 )
"branch" FLOAT DOUBLE PROP(
"key" "branch" 
 )
"sweep" FLOAT DOUBLE
SWEEP
"time" "sweep"
TRACE
"group" GROUP 3
"1" "node" 
"0" "node" 
"2" "node"
VALUE
"time" 0
"group"
0
0
0
"time" 1e-09
"group"
0
0
0
"time" 2e-09
"group"
0
0
0
"time" 3e-09
"group"
0
0
0
"time" 4e-09
"group"
0
0
0
"time" 5e-09
"group"
0
0
0
"time" 6e-09
"group"
0
0
0
"time" 7e-09
"group"
0
0
0
"time" 8e-09
"group"
0
0
0
"time" 9e-09
"group"
0
0
0
"time" 1e-08
"group"
1.65436e-15
0
8.27181e-16
"time" 1.1e-08
"group"
1
0
0.5
"time" 1.2e-08
"group"
2
0
1.25
"time" 1.3e-08
"group"
3
0
2.125
"time" 1.4e-08
"group"
4
0
3.0625
"time" 1.5e-08
"group"
5
0
4.03125
"time" 1.6e-08
"group"
5
0
4.51563
"time" 1.7e-08
"group"
5
0
4.75781
"time" 1.8e-08
"group"
5
0
4.87891
"time" 1.9e-08
"group"
5
0
4.93945
"time" 2e-08
"group"
5
0
4.96973
"time" 2.1e-08
"group"
5
0
4.98486
"time" 2.2e-08
"group"
5
0
4.99243
"time" 2.3e-08
"group"
5
0
4.99622
"time" 2.4e-08
"group"
5
0
4.99811
"time" 2.5e-08
"group"
5
0
4.99905
"time" 2.6e-08
"group"
5
0
4.99953
"time" 2.7e-08
"group"
5
0
4.99976
"time" 2.8e-08
"group"
5
0
4.99988
"time" 2.9e-08
"group"
5
0
4.99994
"time" 3e-08
"group"
5
0
4.99997
"time" 3.1e-08
"group"
5
0
4.99999
"time" 3.2e-08
"group"
5
0
4.99999
"time" 3.3e-08
"group"
5
0
5
"time" 3.4e-08
"group"
5
0
5
"time" 3.5e-08
"group"
5
0
5
"time" 3.6e-08
"group"
5
0
5
"time" 3.7e-08
"group"
5
0
5
"time" 3.8e-08
"group"
5
0
5
"time" 3.9e-08
"group"
5
0
5
"time" 4e-08
"group"
5
0
5
"time" 4.1e-08
"group"
5
0
5
"time" 4.2e-08
"group"
5
0
5
"time" 4.3e-08
"group"
5
0
5
"time" 4.4e-08
"group"
5
0
5
"time" 4.5e-08
"group"
5
0
5
"time" 4.6e-08
"group"
5
0
5
"time" 4.7e-08
"group"
5
0
5
"time" 4.8e-08
"group"
5
0
5
"time" 4.9e-08
"group"
5
0
5
"time" 5e-08
"group"
5
0
5
"time" 5.1e-08
"group"
5
0
5
"time" 5.2e-08
"group"
5
0
5
"time" 5.3e-08
"group"
5
0
5
"time" 5.4e-08
"group"
5
0
5
"time" 5.5e-08
"group"
5
0
5
"time" 5.6e-08
"group"
5
0
5
"time" 5.7e-08
"group"
5
0
5
"time" 5.8e-08
"group"
5
0
5
"time" 5.9e-08
"group"
5
0
5
"time" 6e-08
"group"
5
0
5
"time" 6.1e-08
"group"
5
0
5
"time" 6.2e-08
"group"
5
0
5
"time" 6.3e-08
"group"
5
0
5
"time" 6.4e-08
"group"
5
0
5
"time" 6.5e-08
"group"
5
0
5
"time" 6.6e-08
"group"
4
0
4.5
"time" 6.7e-08
"group"
3
0
3.75
"time" 6.8e-08
"group"
2
0
2.875
"time" 6.9e-08
"group"
1
0
1.9375
"time" 7e-08
"group"
0
0
0.96875
"time" 7.1e-08
"group"
0
0
0.484375
"time" 7.2e-08
"group"
0
0
0.242187
"time" 7.3e-08
"group"
0
0
0.121094
"time" 7.4e-08
"group"
0
0
0.0605469
"time" 7.5e-08
"group"
0
0
0.0302734
"time" 7.6e-08
"group"
0
0
0.0151367
"time" 7.7e-08
"group"
0
0
0.00756836
"time" 7.8e-08
"group"
0
0
0.00378418
"time" 7.9e-08
"group"
0
0
0.00189209
"time" 8e-08
"group"
0
0
0.000946045
"time" 8.1e-08
"group"
0
0
0.000473022
"time" 8.2e-08
"group"
0
0
0.000236511
"time" 8.3e-08
"group"
0
0
0.000118256
"time" 8.4e-08
"group"
0
0
5.91278e-05
"time" 8.5e-08
"group"
0
0
2.95639e-05
"time" 8.6e-08
"group"
0
0
1.4782e-05
"time" 8.7e-08
"group"
0
0
7.39098e-06
"time" 8.8e-08
"group"
0
0
3.69549e-06
"time" 8.9e-08
"group"
0
0
1.84774e-06
"time" 9e-08
"group"
0
0
9.23872e-07
"time" 9.1e-08
"group"
0
0
4.61936e-07
"time" 9.2e-08
"group"
0
0
2.30968e-07
"time" 9.3e-08
"group"
0
0
1.15484e-07
"time" 9.4e-08
"group"
0
0
5.7742e-08
"time" 9.5e-08
"group"
0
0
2.8871e-08
"time" 9.6e-08
"group"
0
0
1.44355e-08
"time" 9.7e-08
"group"
0
0
7.21775e-09
"time" 9.8e-08
"group"
0
0
3.60887e-09
"time" 9.9e-08
"group"
0
0
1.80444e-09
"time" 1e-07
"group"
0
0
9.02219e-10
END
